
**** 07/07/19 00:28:11 ******* PSpice Lite (March 2016) ******* ID# 10813 ****

 ** Profile: "SCHEMATIC1-2-B"  [ D:\PANDA\Study\VE311\Homework\HW6\2-B\2-B-PSpiceFiles\SCHEMATIC1\2-B.sim ] 


 ****     CIRCUIT DESCRIPTION


******************************************************************************




** Creating circuit file "2-B.cir" 
** WARNING: THIS AUTOMATICALLY GENERATED FILE MAY BE OVERWRITTEN BY SUBSEQUENT SIMULATIONS

*Libraries: 
* Profile Libraries :
* Local Libraries :
.LIB "../../../2-b-pspicefiles/2-b.lib" 
* From [PSPICE NETLIST] section of C:\SPB_Data\cdssetup\OrCAD_PSpice\17.2.0\PSpice.ini file:
.lib "nomd.lib" 

*Analysis directives: 
.TRAN  0 0.1 0 0.001 
.OPTIONS ADVCONV
.PROBE64 V(alias(*)) I(alias(*)) W(alias(*)) D(alias(*)) NOISE(alias(*)) 
.INC "..\SCHEMATIC1.net" 



**** INCLUDING SCHEMATIC1.net ****
* source 2-B
M_M1         N00130 N00189 N00126 N00126 Mbreakn           
V_V1         N00134 0 5
R_R1         N00130 N00134  100k TC=0,0 
R_R2         0 N00126  20k TC=0,0 
V_V2         N00189 0  
+SIN 1.2 0.01 100 0 0 0

**** RESUMING 2-B.cir ****
.END

**** 07/07/19 00:28:11 ******* PSpice Lite (March 2016) ******* ID# 10813 ****

 ** Profile: "SCHEMATIC1-2-B"  [ D:\PANDA\Study\VE311\Homework\HW6\2-B\2-B-PSpiceFiles\SCHEMATIC1\2-B.sim ] 


 ****     MOSFET MODEL PARAMETERS


******************************************************************************




               Mbreakn         
               NMOS            
       LEVEL    1            
           L    2.000000E-06 
           W  200.000000E-06 
          LD   80.000000E-09 
         VTO     .7          
          KP  134.288900E-06 
       GAMMA    0            
         PHI     .9          
      LAMBDA    0            
          IS   10.000000E-15 
          JS   10.000000E-09 
          PB     .9          
        PBSW     .9          
          CJ  560.000000E-06 
        CJSW    3.500000E-12 
          MJ     .45         
        MJSW     .2          
        CGSO    0            
        CGDO  400.000000E-12 
        CGBO    0            
        NSUB  900.000000E+12 
         TOX    9.000000E-09 
          XJ    0            
          UO  350            
       UCRIT   10.000000E+03 
      DIOMOD    1            
         VFB    0            
        LETA    0            
        WETA    0            
          U0    0            
        TEMP    0            
         VDD    5            
       XPART    0            


**** 07/07/19 00:28:11 ******* PSpice Lite (March 2016) ******* ID# 10813 ****

 ** Profile: "SCHEMATIC1-2-B"  [ D:\PANDA\Study\VE311\Homework\HW6\2-B\2-B-PSpiceFiles\SCHEMATIC1\2-B.sim ] 


 ****     INITIAL TRANSIENT SOLUTION       TEMPERATURE =   27.000 DEG C


******************************************************************************



 NODE   VOLTAGE     NODE   VOLTAGE     NODE   VOLTAGE     NODE   VOLTAGE


(N00126)     .4448 (N00130)    2.7760 (N00134)    5.0000 (N00189)    1.2000 




    VOLTAGE SOURCE CURRENTS
    NAME         CURRENT

    V_V1        -2.224E-05
    V_V2         0.000E+00

    TOTAL POWER DISSIPATION   1.11E-04  WATTS



          JOB CONCLUDED

**** 07/07/19 00:28:11 ******* PSpice Lite (March 2016) ******* ID# 10813 ****

 ** Profile: "SCHEMATIC1-2-B"  [ D:\PANDA\Study\VE311\Homework\HW6\2-B\2-B-PSpiceFiles\SCHEMATIC1\2-B.sim ] 


 ****     JOB STATISTICS SUMMARY


******************************************************************************



  Total job time (using Solver 1)   =         .02
