
**** 06/22/19 17:59:48 ******* PSpice Lite (March 2016) ******* ID# 10813 ****

 ** Profile: "SCHEMATIC1-hw4c"  [ D:\PANDA\Study\VE311\Homework\HW4\hw4-PSpiceFiles\SCHEMATIC1\hw4c.sim ] 


 ****     CIRCUIT DESCRIPTION


******************************************************************************




** Creating circuit file "hw4c.cir" 
** WARNING: THIS AUTOMATICALLY GENERATED FILE MAY BE OVERWRITTEN BY SUBSEQUENT SIMULATIONS

*Libraries: 
* Profile Libraries :
* Local Libraries :
.LIB "../../../hw4-pspicefiles/hw4.lib" 
* From [PSPICE NETLIST] section of C:\SPB_Data\cdssetup\OrCAD_PSpice\17.2.0\PSpice.ini file:
.lib "nomd.lib" 

*Analysis directives: 
.TRAN  0 0.1 0 0.0001 
.OPTIONS ADVCONV
.PROBE64 V(alias(*)) I(alias(*)) W(alias(*)) D(alias(*)) NOISE(alias(*)) 
.INC "..\SCHEMATIC1.net" 



**** INCLUDING SCHEMATIC1.net ****
* source HW4
R_R1         N000811 N00159  5k TC=0,0 
V_V2         N00159 0 3
Q_Q1         N000811 N00239 0 QbreakN 
V_V3         N00239 0 0.7

**** RESUMING hw4c.cir ****
.END

**** 06/22/19 17:59:48 ******* PSpice Lite (March 2016) ******* ID# 10813 ****

 ** Profile: "SCHEMATIC1-hw4c"  [ D:\PANDA\Study\VE311\Homework\HW4\hw4-PSpiceFiles\SCHEMATIC1\hw4c.sim ] 


 ****     BJT MODEL PARAMETERS


******************************************************************************




               QbreakN         
               NPN             
       LEVEL    1            
          IS  100.000000E-18 
          BF  100            
          NF    1            
         VAF  100            
          BR    1            
          NR    1            
         ISS    0            
          RE    0            
          RC    0            
         CJE    0            
         VJE     .75         
         CJC    0            
         VJC     .75         
         MJC     .33         
        XCJC    1            
         CJS    0            
         VJS     .75         
          KF    0            
          AF    1            
          CN    2.42         
           D     .87         


**** 06/22/19 17:59:48 ******* PSpice Lite (March 2016) ******* ID# 10813 ****

 ** Profile: "SCHEMATIC1-hw4c"  [ D:\PANDA\Study\VE311\Homework\HW4\hw4-PSpiceFiles\SCHEMATIC1\hw4c.sim ] 


 ****     INITIAL TRANSIENT SOLUTION       TEMPERATURE =   27.000 DEG C


******************************************************************************



 NODE   VOLTAGE     NODE   VOLTAGE     NODE   VOLTAGE     NODE   VOLTAGE


(N00159)    3.0000 (N00239)     .7000 (N000811)    2.7106                   




    VOLTAGE SOURCE CURRENTS
    NAME         CURRENT

    V_V2        -5.789E-05
    V_V3        -5.675E-07

    TOTAL POWER DISSIPATION   1.74E-04  WATTS



          JOB CONCLUDED

**** 06/22/19 17:59:48 ******* PSpice Lite (March 2016) ******* ID# 10813 ****

 ** Profile: "SCHEMATIC1-hw4c"  [ D:\PANDA\Study\VE311\Homework\HW4\hw4-PSpiceFiles\SCHEMATIC1\hw4c.sim ] 


 ****     JOB STATISTICS SUMMARY


******************************************************************************



  Total job time (using Solver 1)   =         .02
