
**** 06/08/19 21:34:01 ******* PSpice Lite (March 2016) ******* ID# 10813 ****

 ** Profile: "SCHEMATIC1-2_0"  [ D:\PANDA\Study\VE311\Homework\HW2\HW2.2.b\2-pspicefiles\schematic1\2_0.sim ] 


 ****     CIRCUIT DESCRIPTION


******************************************************************************




** Creating circuit file "2_0.cir" 
** WARNING: THIS AUTOMATICALLY GENERATED FILE MAY BE OVERWRITTEN BY SUBSEQUENT SIMULATIONS

*Libraries: 
* Profile Libraries :
* Local Libraries :
* From [PSPICE NETLIST] section of C:\SPB_Data\cdssetup\OrCAD_PSpice\17.2.0\PSpice.ini file:
.lib "nomd.lib" 

*Analysis directives: 
.TRAN  0 0.5 0 0.0001 
.OPTIONS ADVCONV
.PROBE64 V(alias(*)) I(alias(*)) W(alias(*)) D(alias(*)) NOISE(alias(*)) 
.INC "..\SCHEMATIC1.net" 



**** INCLUDING SCHEMATIC1.net ****
* source 2
D_ID2         N00119 N01824 Dbreak 
V_Vs         N00119 N02700  AC 0
+SIN 0 5 60 0 0 0
C_C1         0 N01824  0.000060  TC=0,0 
R_Vout         0 N01824  5000 TC=0,0 
D_D2         0 N00119 Dbreak 
D_D3         0 N02700 Dbreak 
D_ID3         N02700 N01824 Dbreak 

**** RESUMING 2_0.cir ****
.END

**** 06/08/19 21:34:01 ******* PSpice Lite (March 2016) ******* ID# 10813 ****

 ** Profile: "SCHEMATIC1-2_0"  [ D:\PANDA\Study\VE311\Homework\HW2\HW2.2.b\2-pspicefiles\schematic1\2_0.sim ] 


 ****     Diode MODEL PARAMETERS


******************************************************************************




               Dbreak          
          IS   10.000000E-15 
          RS     .1          
         CJO  100.000000E-15 


**** 06/08/19 21:34:01 ******* PSpice Lite (March 2016) ******* ID# 10813 ****

 ** Profile: "SCHEMATIC1-2_0"  [ D:\PANDA\Study\VE311\Homework\HW2\HW2.2.b\2-pspicefiles\schematic1\2_0.sim ] 


 ****     INITIAL TRANSIENT SOLUTION       TEMPERATURE =   27.000 DEG C


******************************************************************************



 NODE   VOLTAGE     NODE   VOLTAGE     NODE   VOLTAGE     NODE   VOLTAGE


(N00119) 453.7E-24 (N01824) 4.477E-27 (N02700) 453.7E-24 




    VOLTAGE SOURCE CURRENTS
    NAME         CURRENT

    V_Vs         0.000E+00

    TOTAL POWER DISSIPATION   0.00E+00  WATTS



          JOB CONCLUDED

**** 06/08/19 21:34:01 ******* PSpice Lite (March 2016) ******* ID# 10813 ****

 ** Profile: "SCHEMATIC1-2_0"  [ D:\PANDA\Study\VE311\Homework\HW2\HW2.2.b\2-pspicefiles\schematic1\2_0.sim ] 


 ****     JOB STATISTICS SUMMARY


******************************************************************************



  Total job time (using Solver 1)   =         .14
