
**** 06/01/19 21:43:42 ******* PSpice Lite (March 2016) ******* ID# 10813 ****

 ** Profile: "SCHEMATIC1-4"  [ D:\PANDA\Study\VE215\PSpice\1\a-pspicefiles\schematic1\4.sim ] 


 ****     CIRCUIT DESCRIPTION


******************************************************************************




** Creating circuit file "4.cir" 
** WARNING: THIS AUTOMATICALLY GENERATED FILE MAY BE OVERWRITTEN BY SUBSEQUENT SIMULATIONS

*Libraries: 
* Profile Libraries :
* Local Libraries :
* From [PSPICE NETLIST] section of C:\SPB_Data\cdssetup\OrCAD_PSpice\17.2.0\PSpice.ini file:
.lib "nomd.lib" 

*Analysis directives: 
.TRAN  0 0.0003 0 
.OPTIONS ADVCONV
.PROBE64 V(alias(*)) I(alias(*)) W(alias(*)) D(alias(*)) NOISE(alias(*)) 
.INC "..\SCHEMATIC1.net" 



**** INCLUDING SCHEMATIC1.net ****
* source A
V_V1         N00617 0  
+PULSE -0.5 0.5 0 0 0 0.00005 0.0001
R_R1         N00623 N00678  100 TC=0,0 
C_C1         0 N00682  820p  TC=0,0 
L_L1         N00617 N00623  1m  
R_R2         N00678 N00682  2208.6 TC=0,0 

**** RESUMING 4.cir ****
.END

**** 06/01/19 21:43:42 ******* PSpice Lite (March 2016) ******* ID# 10813 ****

 ** Profile: "SCHEMATIC1-4"  [ D:\PANDA\Study\VE215\PSpice\1\a-pspicefiles\schematic1\4.sim ] 


 ****     INITIAL TRANSIENT SOLUTION       TEMPERATURE =   27.000 DEG C


******************************************************************************



 NODE   VOLTAGE     NODE   VOLTAGE     NODE   VOLTAGE     NODE   VOLTAGE


(N00617)    -.5000 (N00623)    -.5000 (N00678)    -.5000 (N00682)    -.5000 




    VOLTAGE SOURCE CURRENTS
    NAME         CURRENT

    V_V1         0.000E+00

    TOTAL POWER DISSIPATION   0.00E+00  WATTS



          JOB CONCLUDED

**** 06/01/19 21:43:42 ******* PSpice Lite (March 2016) ******* ID# 10813 ****

 ** Profile: "SCHEMATIC1-4"  [ D:\PANDA\Study\VE215\PSpice\1\a-pspicefiles\schematic1\4.sim ] 


 ****     JOB STATISTICS SUMMARY


******************************************************************************



  Total job time (using Solver 1)   =         .02
